
T1F68 000:472 SEGGER J-Link V4.50 Log File (0001ms, 0472ms total)
T1F68 000:472 DLL Compiled: Jun  1 2012 22:44:17 (0001ms, 0472ms total)
T1F68 000:472 Logging started @ 2014-03-27 23:49 (0001ms, 0472ms total)
T1F68 000:473 JLINK_SetWarnOutHandler(...) (0000ms, 0472ms total)
T1F68 000:473 JLINK_OpenEx(...)
Firmware: J-Link ARM V8 compiled Jun  1 2012 09:22:18
Hardware: V8.00
S/N: 17935099
Feature(s): RDI,FlashDL,FlashBP,JFlash  returns O.K. (0267ms, 0739ms total)
T1F68 000:740 JLINK_SetErrorOutHandler(...) (0000ms, 0739ms total)
T1F68 000:740 JLINK_ExecCommand("Device = STM32F103VC", ...)
                JLINK_ExecCommand("map ram 0x20000000 - 0x2000BFFF", ...)  returns 0x00 (0000ms, 0000ms total)
                JLINK_AddMirrorAreaEx(Addr = 0x00000000, Size = 0x00000000) (0000ms, 0000ms total)
              Device "STM32F103VC" selected (256 KB flash, 48 KB RAM).  returns 0x00 (0002ms, 0741ms total)
T1F68 000:742 JLINK_ExecCommand("ProjectFile = "C:\Users\Administrator\Desktop\ÎÂ¿Ø\Hector\RVMDK\V1.0\Project\Pro\JLinkSettings.ini"", ...)  returns 0x00 (0000ms, 0741ms total)
T1F68 000:742 JLINK_ExecCommand("DisableConnectionTimeout", ...)  returns 0x00 (0000ms, 0741ms total)
T1F68 000:742 JLINK_TIF_Select(JLINKARM_TIF_JTAG)  returns 0x00 (0000ms, 0741ms total)
T1F68 000:742 JLINK_SetSpeed(2000) (0001ms, 0742ms total)
T1F68 000:743 JLINK_GetHardwareVersion()  returns 0x13880 (0000ms, 0742ms total)
T1F68 000:743 JLINK_GetDLLVersion()  returns 45000 (0000ms, 0742ms total)
T1F68 000:743 JLINK_GetFirmwareString(...) (0000ms, 0742ms total)
T1F68 000:744 JLINK_GetDLLVersion()  returns 45000 (0000ms, 0742ms total)
T1F68 000:746 JLINK_GetCompileDateTime() (0000ms, 0742ms total)
T1F68 000:746 JLINK_GetFirmwareString(...) (0001ms, 0743ms total)
T1F68 000:747 JLINK_GetHardwareVersion()  returns 0x13880 (0000ms, 0743ms total)
T1F68 000:748 JLINK_GetIdData(...) >0x2F8 JTAG>TotalIRLen = 9, IRPrint = 0x0011 >0x30 JTAG> >0x210 JTAG> >0x40 JTAG> >0x40 JTAG> >0x40 JTAG> >0x30 JTAG> >0x40 JTAG> >0x40 JTAG> >0x40 JTAG> >0x40 JTAG> >0x40 JTAG> >0x40 JTAG> >0x40 JTAG> >0x40 JTAG> >0x2F8 JTAG>TotalIRLen = 9, IRPrint = 0x0011 >0x30 JTAG> >0x210 JTAG> >0x80 JTAG> >0x40 JTAG> >0x40 JTAG> >0x50 JTAG> >0x40 JTAG> >0x40 JTAG> >0x40 JTAG> >0x50 JTAG> >0x40 JTAG> >0x50 JTAG> >0x40 JTAG> >0x40 JTAG> >0x40 JTAG> >0x40 JTAG> >0x30 JTAG>
 >0x40 JTAG> >0x50 JTAG> >0x40 JTAG> >0x38 JTAG> >0x80 JTAG> >0x40 JTAG> >0x40 JTAG> >0x50 JTAG> >0x40 JTAG> >0x40 JTAG> >0x40 JTAG> >0x50 JTAG> >0x40 JTAG> >0x40 JTAG> >0x30 JTAG> >0x40 JTAG> >0x40 JTAG> >0x40 JTAG> >0x40 JTAG> >0x40 JTAG> >0x50 JTAG> >0x40 JTAG> >0x80 JTAG> >0x40 JTAG> >0x30 JTAG> >0x40 JTAG> >0x40 JTAG> >0x40 JTAG> >0x40 JTAG> >0x40 JTAG> >0x50 JTAG> >0x40 JTAG> >0x80 JTAG> >0x40 JTAG> >0x30 JTAG> >0x40 JTAG> >0x50 JTAG> >0x40 JTAG> >0x40 JTAG> >0x40 JTAG> >0x30 JTAG> >0x40 JTAG>
 >0x50 JTAG> >0x40 JTAG>Found Cortex-M3 r1p1, Little endian. >0x50 JTAG> >0x50 JTAG> >0x40 JTAG> >0x40 JTAG> >0x30 JTAG> >0x30 JTAG> >0x50 JTAG> >0x40 JTAG> >0x80 JTAG> >0x40 JTAG> >0x30 JTAG> >0x40 JTAG> >0x50 JTAG> >0x40 JTAG> >0x40 JTAG> >0x40 JTAG> >0x30 JTAG> >0x40 JTAG> >0x50 JTAG> >0x40 JTAG>TPIU fitted. >0x40 JTAG> >0x40 JTAG> >0x30 JTAG> >0x40 JTAG> >0x50 JTAG> >0x40 JTAG>ETM fitted. >0x40 JTAG> >0x40 JTAG> >0x30 JTAG> >0x40 JTAG> >0x50 JTAG> >0x40 JTAG> >0x40 JTAG> >0x40 JTAG> >0x30 JTAG>
 >0x40 JTAG> >0x50 JTAG> >0x40 JTAG>FPUnit: 6 code (BP) slots and 2 literal slots >0x40 JTAG> >0x40 JTAG> >0x30 JTAG> >0x40 JTAG> >0x50 JTAG> >0x40 JTAG> >0x40 JTAG> >0x40 JTAG> >0x30 JTAG> >0x40 JTAG> >0x50 JTAG> >0x40 JTAG> ScanLen=9 NumDevices=2 aId[0]=0x3BA00477 aIrRead[0]=0 aScanLen[0]=0 aScanRead[0]=0 (0094ms, 0837ms total)
T1F68 000:842 JLINK_JTAG_GetDeviceID(DeviceIndex = 0)  returns 0x3BA00477 (0000ms, 0837ms total)
T1F68 000:842 JLINK_JTAG_GetDeviceInfo(DeviceIndex = 0)  returns 0x00 (0000ms, 0837ms total)
T1F68 000:842 JLINK_JTAG_GetDeviceID(DeviceIndex = 1)  returns 0x6414041 (0000ms, 0837ms total)
T1F68 000:842 JLINK_JTAG_GetDeviceInfo(DeviceIndex = 1)  returns 0x00 (0000ms, 0837ms total)
T1F68 000:842 JLINK_GetDebugInfo(0x100) -- Value=0xE00FF003  returns 0x00 (0000ms, 0837ms total)
T1F68 000:842 JLINK_ReadMem (0xE00FFFF0, 0x0010 Bytes, ...) -- CPU is running -- CPU_ReadMem(16 bytes @ 0xE00FFFF0) -- Data:  0D 00 00 00 10 00 00 00 05 00 00 00 B1 00 00 00  returns 0x00 (0005ms, 0842ms total)
T1F68 000:847 JLINK_ReadMem (0xE00FFFD0, 0x0020 Bytes, ...) -- CPU is running -- CPU_ReadMem(32 bytes @ 0xE00FFFD0) -- Data:  00 00 00 00 00 00 00 00 00 00 00 00 00 00 00 00 ...  returns 0x00 (0001ms, 0843ms total)
T1F68 000:848 JLINK_ReadMem (0xE00FF000, 0x0018 Bytes, ...) -- CPU is running -- CPU_ReadMem(24 bytes @ 0xE00FF000) -- Data:  03 F0 F0 FF 03 20 F0 FF 03 30 F0 FF 03 10 F0 FF ...  returns 0x00 (0001ms, 0844ms total)
T1F68 000:849 JLINK_ReadMemU32(0xE000ED00, 0x0001 Items, ...) -- CPU is running -- CPU_ReadMem(4 bytes @ 0xE000ED00) -- Data:  31 C2 1F 41  returns 0x01 (0001ms, 0845ms total)
T1F68 000:850 JLINK_SetResetType(JLINKARM_RESET_TYPE_NORMAL)  returns JLINKARM_RESET_TYPE_NORMAL (0000ms, 0845ms total)
T1F68 000:850 JLINK_Reset() >0x48 JTAG> >0x80 JTAG> >0x40 JTAG> >0x40 JTAG> >0x50 JTAG> >0x40 JTAG> >0x40 JTAG> >0x40 JTAG> >0x50 JTAG> >0x40 JTAG> >0x40 JTAG> >0x30 JTAG> >0x40 JTAG> >0x40 JTAG> >0x40 JTAG> >0x40 JTAG> >0x40 JTAG> >0x50 JTAG> >0x40 JTAG> >0x80 JTAG> >0x40 JTAG> >0x30 JTAG> >0x40 JTAG> >0x40 JTAG> >0x40 JTAG> >0x40 JTAG> >0x40 JTAG> >0x50 JTAG> >0x40 JTAG> >0x80 JTAG> >0x40 JTAG> >0x30 JTAG> >0x40 JTAG> >0x50 JTAG> >0x40 JTAG> >0x40 JTAG> >0x40 JTAG> >0x30 JTAG> >0x40 JTAG> >0x50 JTAG>
 >0x40 JTAG>Found Cortex-M3 r1p1, Little endian. >0x50 JTAG> >0x50 JTAG> >0x40 JTAG> >0x40 JTAG> >0x30 JTAG> >0x30 JTAG> >0x50 JTAG> >0x40 JTAG> >0x80 JTAG> >0x40 JTAG> >0x30 JTAG> >0x40 JTAG> >0x50 JTAG> >0x40 JTAG> >0x40 JTAG> >0x40 JTAG> >0x30 JTAG> >0x40 JTAG> >0x50 JTAG> >0x40 JTAG>TPIU fitted. >0x40 JTAG> >0x40 JTAG> >0x30 JTAG> >0x40 JTAG> >0x50 JTAG> >0x40 JTAG>ETM fitted. >0x40 JTAG> >0x40 JTAG> >0x30 JTAG> >0x40 JTAG> >0x50 JTAG> >0x40 JTAG> >0x40 JTAG> >0x40 JTAG> >0x30 JTAG> >0x40 JTAG>
 >0x50 JTAG> >0x40 JTAG>FPUnit: 6 code (BP) slots and 2 literal slots >0x40 JTAG> >0x40 JTAG> >0x30 JTAG> >0x40 JTAG> >0x50 JTAG> >0x40 JTAG> >0x40 JTAG> >0x40 JTAG> >0x30 JTAG> >0x40 JTAG> >0x50 JTAG> >0x40 JTAG> -- CPU is running -- CPU_WriteMem(4 bytes @ 0xE000EDF0) -- CPU is running -- CPU_WriteMem(4 bytes @ 0xE000EDFC) -- CPU is running -- CPU_WriteMem(4 bytes @ 0xE000ED0C) -- CPU is running -- CPU_ReadMem(4 bytes @ 0xE000EDF0) -- CPU is running -- CPU_ReadMem(4 bytes @ 0xE000EDF0) -- CPU is running
 -- CPU_WriteMem(4 bytes @ 0xE000EDF0) -- CPU is running -- CPU_WriteMem(4 bytes @ 0xE000EDFC) -- CPU is running -- CPU_ReadMem(4 bytes @ 0xE000EDF0) >0x90 JTAG> >0x40 JTAG> >0x30 JTAG> >0x40 JTAG> >0x50 JTAG> >0x40 JTAG> -- CPU_WriteMem(4 bytes @ 0xE0002000) (0098ms, 0943ms total)
T1F68 000:948 JLINK_ReadReg(R15)  returns 0x080027C0 (0000ms, 0943ms total)
T1F68 000:948 JLINK_ReadReg(XPSR)  returns 0x01000000 (0000ms, 0943ms total)
T1F68 000:948 JLINK_Halt()  returns 0x00 (0000ms, 0943ms total)
T1F68 000:948 JLINK_IsHalted()  returns TRUE (0000ms, 0943ms total)
T1F68 000:948 JLINK_ReadMemU32(0xE000EDF0, 0x0001 Items, ...) -- CPU_ReadMem(4 bytes @ 0xE000EDF0) -- Data:  03 00 03 00  returns 0x01 (0001ms, 0944ms total)
T1F68 000:949 JLINK_WriteU32(0xE000EDF0, 0xA05F0003) -- CPU_WriteMem(4 bytes @ 0xE000EDF0)  returns 0x00 (0001ms, 0945ms total)
T1F68 000:950 JLINK_WriteU32(0xE000EDFC, 0x01000000)  returns 0x00 (0000ms, 0945ms total)
T1F68 000:950 JLINK_ReadMemU32(0xE0002000, 0x0001 Items, ...) -- CPU_ReadMem(4 bytes @ 0xE0002000) -- Data:  61 02 00 00  returns 0x01 (0001ms, 0946ms total)
T1F68 000:951 JLINK_ReadMemU32(0xE0001000, 0x0001 Items, ...) -- CPU_ReadMem(4 bytes @ 0xE0001000) -- Data:  00 00 00 40  returns 0x01 (0001ms, 0947ms total)
T1F68 000:952 JLINK_WriteU32(0xE0001028, 0x00000000)  returns 0x00 (0000ms, 0947ms total)
T1F68 000:952 JLINK_WriteU32(0xE0001038, 0x00000000)  returns 0x00 (0000ms, 0947ms total)
T1F68 000:952 JLINK_WriteU32(0xE0001048, 0x00000000)  returns 0x00 (0000ms, 0947ms total)
T1F68 000:952 JLINK_WriteU32(0xE0001058, 0x00000000)  returns 0x00 (0000ms, 0947ms total)
T1F68 000:953 JLINK_GetHWStatus(...)  returns 0x00 (0001ms, 0948ms total)
T1F68 000:954 JLINK_GetNumBPUnits(Type = 0xFFFFFF00)  returns 0x06 (0000ms, 0948ms total)
T1F68 000:954 JLINK_GetNumBPUnits(Type = 0xF0)  returns 0x2000 (0000ms, 0948ms total)
T1F68 000:954 JLINK_GetNumWPUnits()  returns 0x04 (0000ms, 0948ms total)
T1F68 000:954 JLINK_GetSpeed()  returns 0x7D0 (0001ms, 0949ms total)
T1F68 000:955 JLINK_ReadMemU32(0xE000E004, 0x0001 Items, ...) -- CPU_ReadMem(4 bytes @ 0xE000E004) -- Data:  01 00 00 00  returns 0x01 (0001ms, 0950ms total)
T1F68 000:956 JLINK_ReadMemU32(0xE000E004, 0x0001 Items, ...) -- CPU_ReadMem(4 bytes @ 0xE000E004) -- Data:  01 00 00 00  returns 0x01 (0001ms, 0951ms total)
T1F68 000:957 JLINK_WriteMem(0xE0001000, 0x001C Bytes, ...) -- Data:  01 00 00 00 00 00 00 00 00 00 00 00 00 00 00 00 ... -- CPU_WriteMem(28 bytes @ 0xE0001000)  returns 0x1C (0001ms, 0952ms total)
T1F68 000:958 JLINK_ReadMem (0xE0001000, 0x001C Bytes, ...) -- CPU_ReadMem(28 bytes @ 0xE0001000) -- Data:  00 00 00 40 00 00 00 40 00 00 00 40 00 00 00 40 ...  returns 0x00 (0001ms, 0953ms total)
T1F68 000:959 JLINK_ReadReg(R15)  returns 0x080027C0 (0000ms, 0953ms total)
T1F68 000:959 JLINK_ReadReg(XPSR)  returns 0x01000000 (0000ms, 0953ms total)
T1F68 001:064 JLINK_SetResetType(JLINKARM_RESET_TYPE_NORMAL)  returns JLINKARM_RESET_TYPE_NORMAL (0000ms, 0953ms total)
T1F68 001:064 JLINK_Reset() -- CPU_WriteMem(4 bytes @ 0xE0001028) -- CPU_WriteMem(4 bytes @ 0xE0001038) -- CPU_WriteMem(4 bytes @ 0xE0001048) -- CPU_WriteMem(4 bytes @ 0xE0001058) -- CPU_WriteMem(4 bytes @ 0xE000EDFC) >0x38 JTAG> >0x80 JTAG> >0x40 JTAG> >0x40 JTAG> >0x50 JTAG> >0x40 JTAG> >0x40 JTAG> >0x40 JTAG> >0x50 JTAG> >0x40 JTAG> >0x40 JTAG> >0x30 JTAG> >0x40 JTAG> >0x40 JTAG> >0x40 JTAG> >0x40 JTAG> >0x40 JTAG> >0x50 JTAG> >0x40 JTAG> >0x80 JTAG> >0x40 JTAG> >0x30 JTAG> >0x40 JTAG> >0x40 JTAG>
 >0x40 JTAG> >0x40 JTAG> >0x40 JTAG> >0x50 JTAG> >0x40 JTAG> >0x80 JTAG> >0x40 JTAG> >0x30 JTAG> >0x40 JTAG> >0x50 JTAG> >0x40 JTAG> >0x40 JTAG> >0x40 JTAG> >0x30 JTAG> >0x40 JTAG> >0x50 JTAG> >0x40 JTAG>Found Cortex-M3 r1p1, Little endian. >0x50 JTAG> >0x50 JTAG> >0x40 JTAG> >0x40 JTAG> >0x30 JTAG> >0x30 JTAG> >0x50 JTAG> >0x40 JTAG> >0x80 JTAG> >0x40 JTAG> >0x30 JTAG> >0x40 JTAG> >0x50 JTAG> >0x40 JTAG> >0x40 JTAG> >0x40 JTAG> >0x30 JTAG> >0x40 JTAG> >0x50 JTAG> >0x40 JTAG>TPIU fitted. >0x40 JTAG>
 >0x40 JTAG> >0x30 JTAG> >0x40 JTAG> >0x50 JTAG> >0x40 JTAG>ETM fitted. >0x40 JTAG> >0x40 JTAG> >0x30 JTAG> >0x40 JTAG> >0x50 JTAG> >0x40 JTAG> >0x40 JTAG> >0x40 JTAG> >0x30 JTAG> >0x40 JTAG> >0x50 JTAG> >0x40 JTAG>FPUnit: 6 code (BP) slots and 2 literal slots >0x40 JTAG> >0x40 JTAG> >0x30 JTAG> >0x40 JTAG> >0x50 JTAG> >0x40 JTAG> >0x40 JTAG> >0x40 JTAG> >0x30 JTAG> >0x40 JTAG> >0x50 JTAG> >0x40 JTAG> -- CPU_WriteMem(4 bytes @ 0xE000EDF0) -- CPU_WriteMem(4 bytes @ 0xE000ED0C)
 -- CPU_ReadMem(4 bytes @ 0xE000EDF0) -- CPU_ReadMem(4 bytes @ 0xE000EDF0) -- CPU_WriteMem(4 bytes @ 0xE000EDF0) -- CPU is running -- CPU_ReadMem(4 bytes @ 0xE000EDF0) >0x90 JTAG> >0x40 JTAG> >0x30 JTAG> >0x40 JTAG> >0x50 JTAG> >0x40 JTAG> -- CPU_WriteMem(4 bytes @ 0xE0002000) (0103ms, 1056ms total)
T1F68 001:167 JLINK_ReadReg(R15)  returns 0x08000350 (0001ms, 1057ms total)
T1F68 001:168 JLINK_ReadReg(XPSR)  returns 0x41000000 (0000ms, 1057ms total)
T1F68 001:168 JLINK_ReadMem (0x08000350, 0x003C Bytes, ...) -- CPU_ReadMem(128 bytes @ 0x08000340) -- Updating C cache (128 bytes @ 0x08000340) -- Read from C cache (60 bytes @ 0x08000350) -- Data:  F6 D0 4F F0 00 02 4F F0 E0 23 1A 61 9A 61 70 47 ...  returns 0x00 (0003ms, 1060ms total)
T1F68 001:292 JLINK_ReadReg(R0)  returns 0x00000001 (0000ms, 1060ms total)
T1F68 001:292 JLINK_ReadReg(R1)  returns 0x00000064 (0000ms, 1060ms total)
T1F68 001:292 JLINK_ReadReg(R2)  returns 0xE000E000 (0000ms, 1060ms total)
T1F68 001:292 JLINK_ReadReg(R3)  returns 0xE000E000 (0000ms, 1060ms total)
T1F68 001:292 JLINK_ReadReg(R4)  returns 0x00000846 (0000ms, 1060ms total)
T1F68 001:292 JLINK_ReadReg(R5)  returns 0xC0170A3D (0000ms, 1060ms total)
T1F68 001:292 JLINK_ReadReg(R6)  returns 0x00000000 (0000ms, 1060ms total)
T1F68 001:292 JLINK_ReadReg(R7)  returns 0x00000000 (0000ms, 1060ms total)
T1F68 001:292 JLINK_ReadReg(R8)  returns 0x00000000 (0000ms, 1060ms total)
T1F68 001:292 JLINK_ReadReg(R9)  returns 0x20000160 (0000ms, 1060ms total)
T1F68 001:292 JLINK_ReadReg(R10)  returns 0x00000000 (0000ms, 1060ms total)
T1F68 001:292 JLINK_ReadReg(R11)  returns 0x00000000 (0000ms, 1060ms total)
T1F68 001:293 JLINK_ReadReg(R12)  returns 0x00002000 (0000ms, 1061ms total)
T1F68 001:293 JLINK_ReadReg(R13)  returns 0x20000478 (0000ms, 1061ms total)
T1F68 001:293 JLINK_ReadReg(R14)  returns 0x08000285 (0000ms, 1061ms total)
T1F68 001:293 JLINK_ReadReg(R15)  returns 0x08000350 (0000ms, 1061ms total)
T1F68 001:293 JLINK_ReadReg(XPSR)  returns 0x41000000 (0000ms, 1061ms total)
T1F68 001:293 JLINK_ReadReg(MSP)  returns 0x20000478 (0000ms, 1061ms total)
T1F68 001:293 JLINK_ReadReg(PSP)  returns 0x20000800 (0000ms, 1061ms total)
T1F68 001:293 JLINK_ReadReg(BASEPRI)  returns 0x00000000 (0000ms, 1061ms total)
T1F68 001:293 JLINK_ReadReg(CONTROL)  returns 0x00000000 (0000ms, 1061ms total)
T1F68 001:293 JLINK_ReadReg(FAULTMASK)  returns 0x00000000 (0000ms, 1061ms total)
T1F68 001:293 JLINK_ReadReg(BASEPRI_MAX)  returns 0x00000000 (0000ms, 1061ms total)
T1F68 001:296 JLINK_ReadMem (0x20000000, 0x0004 Bytes, ...) -- CPU_ReadMem(64 bytes @ 0x20000000) -- Updating C cache (64 bytes @ 0x20000000) -- Read from C cache (4 bytes @ 0x20000000) -- Data:  00 00 00 00  returns 0x00 (0002ms, 1063ms total)
T1980 002:471 JLINK_SetBPEx(Addr = 0x08000206, Type = 0xFFFFFFF2)  returns 0x00000001 (0001ms, 1064ms total)
T1980 002:472 JLINK_SetBPEx(Addr = 0x08000230, Type = 0xFFFFFFF2)  returns 0x00000002 (0000ms, 1064ms total)
T1980 002:472 JLINK_SetBPEx(Addr = 0x0800017A, Type = 0xFFFFFFF2)  returns 0x00000003 (0000ms, 1064ms total)
T1980 002:472 JLINK_Go() -- CPU_WriteMem(4 bytes @ 0xE0002008) -- CPU_WriteMem(4 bytes @ 0xE000200C) -- CPU_WriteMem(4 bytes @ 0xE0002010) -- CPU_WriteMem(4 bytes @ 0xE0002014) -- CPU_WriteMem(4 bytes @ 0xE0002018) -- CPU_WriteMem(4 bytes @ 0xE000201C) -- CPU_WriteMem(4 bytes @ 0xE0001028) -- CPU_WriteMem(4 bytes @ 0xE0001038) -- CPU_WriteMem(4 bytes @ 0xE0001048) -- CPU_WriteMem(4 bytes @ 0xE0001058) (0011ms, 1075ms total)
T1F68 002:483 JLINK_ReadMem (0x08000346, 0x0002 Bytes, ...) -- CPU is running -- CPU_ReadMem(2 bytes @ 0x08000346) -- Data:  10 F0  returns 0x00 (0001ms, 1076ms total)
T1F68 002:484 JLINK_ReadMem (0x08000348, 0x0002 Bytes, ...) -- CPU is running -- CPU_ReadMem(2 bytes @ 0x08000348) -- Data:  01 0F  returns 0x00 (0001ms, 1077ms total)
T1F68 002:485 JLINK_ReadMem (0x0800034A, 0x0002 Bytes, ...) -- CPU is running -- CPU_ReadMem(2 bytes @ 0x0800034A) -- Data:  02 D0  returns 0x00 (0001ms, 1078ms total)
T1F68 002:486 JLINK_ReadMem (0x0800034C, 0x0002 Bytes, ...) -- CPU is running -- CPU_ReadMem(2 bytes @ 0x0800034C) -- Data:  10 F4  returns 0x00 (0001ms, 1079ms total)
T1F68 002:487 JLINK_ReadMem (0x0800034E, 0x0002 Bytes, ...) -- CPU is running -- CPU_ReadMem(2 bytes @ 0x0800034E) -- Data:  80 3F  returns 0x00 (0001ms, 1080ms total)
T1980 002:583 JLINK_IsHalted()  returns TRUE (0005ms, 1085ms total)
T1980 002:589 JLINK_Halt()  returns 0x00 (0000ms, 1080ms total)
T1980 002:589 JLINK_IsHalted()  returns TRUE (0000ms, 1080ms total)
T1980 002:589 JLINK_IsHalted()  returns TRUE (0000ms, 1080ms total)
T1980 002:589 JLINK_IsHalted()  returns TRUE (0000ms, 1080ms total)
T1980 002:589 JLINK_ReadReg(R15)  returns 0x08000230 (0000ms, 1080ms total)
T1980 002:589 JLINK_ReadReg(XPSR)  returns 0x61000000 (0000ms, 1080ms total)
T1980 002:589 JLINK_ClrBPEx(BPHandle = 0x00000001)  returns 0x00 (0000ms, 1080ms total)
T1980 002:589 JLINK_ClrBPEx(BPHandle = 0x00000002)  returns 0x00 (0000ms, 1080ms total)
T1980 002:589 JLINK_ClrBPEx(BPHandle = 0x00000003)  returns 0x00 (0000ms, 1080ms total)
T1980 002:589 JLINK_ReadMemU32(0xE000ED30, 0x0001 Items, ...) -- CPU_ReadMem(4 bytes @ 0xE000ED30) -- Data:  03 00 00 00  returns 0x01 (0002ms, 1082ms total)
T1980 002:591 JLINK_ReadMemU32(0xE0001028, 0x0001 Items, ...) -- CPU_ReadMem(4 bytes @ 0xE0001028) -- Data:  00 00 00 00  returns 0x01 (0001ms, 1083ms total)
T1980 002:592 JLINK_ReadMemU32(0xE0001038, 0x0001 Items, ...) -- CPU_ReadMem(4 bytes @ 0xE0001038) -- Data:  00 02 00 00  returns 0x01 (0001ms, 1084ms total)
T1980 002:593 JLINK_ReadMemU32(0xE0001048, 0x0001 Items, ...) -- CPU_ReadMem(4 bytes @ 0xE0001048) -- Data:  00 00 00 00  returns 0x01 (0002ms, 1086ms total)
T1980 002:595 JLINK_ReadMemU32(0xE0001058, 0x0001 Items, ...) -- CPU_ReadMem(4 bytes @ 0xE0001058) -- Data:  00 00 00 00  returns 0x01 (0001ms, 1087ms total)
T1F68 002:597 JLINK_ReadReg(R0)  returns 0x00000005 (0000ms, 1087ms total)
T1F68 002:597 JLINK_ReadReg(R1)  returns 0x00000040 (0000ms, 1087ms total)
T1F68 002:597 JLINK_ReadReg(R2)  returns 0x40004400 (0000ms, 1087ms total)
T1F68 002:597 JLINK_ReadReg(R3)  returns 0x000000C0 (0000ms, 1087ms total)
T1F68 002:597 JLINK_ReadReg(R4)  returns 0x00000846 (0000ms, 1087ms total)
T1F68 002:597 JLINK_ReadReg(R5)  returns 0xC0170A3D (0000ms, 1087ms total)
T1F68 002:597 JLINK_ReadReg(R6)  returns 0x00000000 (0000ms, 1087ms total)
T1F68 002:597 JLINK_ReadReg(R7)  returns 0x00000000 (0001ms, 1088ms total)
T1F68 002:598 JLINK_ReadReg(R8)  returns 0x00000000 (0000ms, 1088ms total)
T1F68 002:598 JLINK_ReadReg(R9)  returns 0x20000160 (0000ms, 1088ms total)
T1F68 002:598 JLINK_ReadReg(R10)  returns 0x00000000 (0000ms, 1088ms total)
T1F68 002:598 JLINK_ReadReg(R11)  returns 0x00000000 (0000ms, 1088ms total)
T1F68 002:598 JLINK_ReadReg(R12)  returns 0x00002000 (0000ms, 1088ms total)
T1F68 002:598 JLINK_ReadReg(R13)  returns 0x20000478 (0000ms, 1088ms total)
T1F68 002:598 JLINK_ReadReg(R14)  returns 0x080029DD (0000ms, 1088ms total)
T1F68 002:598 JLINK_ReadReg(R15)  returns 0x08000230 (0000ms, 1088ms total)
T1F68 002:598 JLINK_ReadReg(XPSR)  returns 0x61000000 (0000ms, 1088ms total)
T1F68 002:598 JLINK_ReadReg(MSP)  returns 0x20000478 (0000ms, 1088ms total)
T1F68 002:598 JLINK_ReadReg(PSP)  returns 0x20000800 (0000ms, 1088ms total)
T1F68 002:598 JLINK_ReadReg(BASEPRI)  returns 0x00000000 (0000ms, 1088ms total)
T1F68 002:598 JLINK_ReadReg(CONTROL)  returns 0x00000000 (0001ms, 1089ms total)
T1F68 002:599 JLINK_ReadReg(FAULTMASK)  returns 0x00000000 (0000ms, 1089ms total)
T1F68 002:599 JLINK_ReadReg(BASEPRI_MAX)  returns 0x00000000 (0000ms, 1089ms total)
T1F68 002:599 JLINK_WriteReg(R0, 0x00000005)  returns 0x00 (0000ms, 1089ms total)
T1F68 002:599 JLINK_WriteReg(R1, 0x00000040)  returns 0x00 (0000ms, 1089ms total)
T1F68 002:599 JLINK_WriteReg(R2, 0x40004400)  returns 0x00 (0000ms, 1089ms total)
T1F68 002:599 JLINK_WriteReg(R3, 0x000000C0)  returns 0x00 (0000ms, 1089ms total)
T1F68 002:600 JLINK_WriteReg(R4, 0x00000846)  returns 0x00 (0000ms, 1089ms total)
T1F68 002:600 JLINK_WriteReg(R5, 0xC0170A3D)  returns 0x00 (0000ms, 1089ms total)
T1F68 002:600 JLINK_WriteReg(R6, 0x00000000)  returns 0x00 (0000ms, 1089ms total)
T1F68 002:600 JLINK_WriteReg(R7, 0x00000000)  returns 0x00 (0000ms, 1089ms total)
T1F68 002:600 JLINK_WriteReg(R8, 0x00000000)  returns 0x00 (0000ms, 1089ms total)
T1F68 002:600 JLINK_WriteReg(R9, 0x20000160)  returns 0x00 (0000ms, 1089ms total)
T1F68 002:600 JLINK_WriteReg(R10, 0x00000000)  returns 0x00 (0000ms, 1089ms total)
T1F68 002:600 JLINK_WriteReg(R11, 0x00000000)  returns 0x00 (0000ms, 1089ms total)
T1F68 002:600 JLINK_WriteReg(R12, 0x00002000)  returns 0x00 (0000ms, 1089ms total)
T1F68 002:600 JLINK_WriteReg(R13, 0x20000478)  returns 0x00 (0000ms, 1089ms total)
T1F68 002:600 JLINK_WriteReg(R14, 0x080029DD)  returns 0x00 (0000ms, 1089ms total)
T1F68 002:600 JLINK_WriteReg(R15, 0x08000230)  returns 0x00 (0000ms, 1089ms total)
T1F68 002:600 JLINK_WriteReg(XPSR, 0x61000000)  returns 0x00 (0000ms, 1089ms total)
T1F68 002:600 JLINK_WriteReg(MSP, 0x20000478)  returns 0x00 (0001ms, 1090ms total)
T1F68 002:601 JLINK_WriteReg(PSP, 0x20000800)  returns 0x00 (0000ms, 1090ms total)
T1F68 002:601 JLINK_WriteReg(BASEPRI, 0x00000000)  returns 0x00 (0000ms, 1090ms total)
T1F68 002:601 JLINK_WriteReg(CONTROL, 0x00000000)  returns 0x00 (0000ms, 1090ms total)
T1F68 002:601 JLINK_WriteReg(FAULTMASK, 0x00000000)  returns 0x00 (0000ms, 1090ms total)
T1F68 002:601 JLINK_WriteReg(BASEPRI_MAX, 0x00000000)  returns 0x00 (0000ms, 1090ms total)
T1F68 002:601 JLINK_ReadMem (0x00000000, 0x0004 Bytes, ...)
                JLINK_ReadMemHW(0x00000000, 0x0004 Bytes, ...) -- CPU_ReadMem(4 bytes @ 0x00000000) -- Data:  78 04 00 20  returns 0x00 (0002ms, 0002ms total)
                JLINK_ReadMemHW(0x08000000, 0x0004 Bytes, ...) -- CPU_ReadMem(4 bytes @ 0x08000000) -- Data:  78 04 00 20  returns 0x00 (0001ms, 0003ms total)
                JLINK_WriteMemHW(0x00000000, 0x0004 Bytes, ...) -- Data:  09 00 01 00 -- CPU_WriteMem(4 bytes @ 0x00000000)  returns 0x04 (0002ms, 0005ms total)
                JLINK_ReadMemHW(0x00000000, 0x0004 Bytes, ...) -- CPU_ReadMem(4 bytes @ 0x00000000) -- Data:  78 04 00 20  returns 0x00 (0001ms, 0006ms total)
               -- MA0 is in flash -- Unmirror addr 0x00000000 -- CPU_ReadMem(64 bytes @ 0x08000000) -- Updating C cache (64 bytes @ 0x08000000) -- Read from C cache (4 bytes @ 0x08000000) -- Data:  78 04 00 20  returns 0x00 (0008ms, 1098ms total)
T1F68 002:610 JLINK_ReadReg(R0)  returns 0x00000005 (0000ms, 1098ms total)
T1F68 002:610 JLINK_ReadReg(R1)  returns 0x00000040 (0000ms, 1098ms total)
T1F68 002:610 JLINK_ReadReg(R2)  returns 0x40004400 (0000ms, 1098ms total)
T1F68 002:610 JLINK_ReadReg(R3)  returns 0x000000C0 (0000ms, 1098ms total)
T1F68 002:610 JLINK_ReadReg(R4)  returns 0x00000846 (0000ms, 1098ms total)
T1F68 002:610 JLINK_ReadReg(R5)  returns 0xC0170A3D (0000ms, 1098ms total)
T1F68 002:610 JLINK_ReadReg(R6)  returns 0x00000000 (0000ms, 1098ms total)
T1F68 002:610 JLINK_ReadReg(R7)  returns 0x00000000 (0000ms, 1098ms total)
T1F68 002:610 JLINK_ReadReg(R8)  returns 0x00000000 (0000ms, 1098ms total)
T1F68 002:610 JLINK_ReadReg(R9)  returns 0x20000160 (0000ms, 1098ms total)
T1F68 002:610 JLINK_ReadReg(R10)  returns 0x00000000 (0000ms, 1098ms total)
T1F68 002:610 JLINK_ReadReg(R11)  returns 0x00000000 (0001ms, 1099ms total)
T1F68 002:611 JLINK_ReadReg(R12)  returns 0x00002000 (0000ms, 1099ms total)
T1F68 002:611 JLINK_ReadReg(R13)  returns 0x20000478 (0000ms, 1099ms total)
T1F68 002:611 JLINK_ReadReg(R14)  returns 0x080029DD (0000ms, 1099ms total)
T1F68 002:611 JLINK_ReadReg(R15)  returns 0x08000230 (0000ms, 1099ms total)
T1F68 002:611 JLINK_ReadReg(XPSR)  returns 0x61000000 (0000ms, 1099ms total)
T1F68 002:611 JLINK_ReadReg(MSP)  returns 0x20000478 (0000ms, 1099ms total)
T1F68 002:611 JLINK_ReadReg(PSP)  returns 0x20000800 (0000ms, 1099ms total)
T1F68 002:611 JLINK_ReadReg(BASEPRI)  returns 0x00000000 (0000ms, 1099ms total)
T1F68 002:611 JLINK_ReadReg(CONTROL)  returns 0x00000000 (0000ms, 1099ms total)
T1F68 002:611 JLINK_ReadReg(FAULTMASK)  returns 0x00000000 (0000ms, 1099ms total)
T1F68 002:611 JLINK_ReadReg(BASEPRI_MAX)  returns 0x00000000 (0000ms, 1099ms total)
T1F68 002:611 JLINK_WriteReg(R0, 0x00000005)  returns 0x00 (0000ms, 1099ms total)
T1F68 002:611 JLINK_WriteReg(R1, 0x00000040)  returns 0x00 (0001ms, 1100ms total)
T1F68 002:612 JLINK_WriteReg(R2, 0x40004400)  returns 0x00 (0000ms, 1100ms total)
T1F68 002:612 JLINK_WriteReg(R3, 0x000000C0)  returns 0x00 (0000ms, 1100ms total)
T1F68 002:612 JLINK_WriteReg(R4, 0x00000846)  returns 0x00 (0000ms, 1100ms total)
T1F68 002:612 JLINK_WriteReg(R5, 0xC0170A3D)  returns 0x00 (0000ms, 1100ms total)
T1F68 002:612 JLINK_WriteReg(R6, 0x00000000)  returns 0x00 (0000ms, 1100ms total)
T1F68 002:612 JLINK_WriteReg(R7, 0x00000000)  returns 0x00 (0000ms, 1100ms total)
T1F68 002:612 JLINK_WriteReg(R8, 0x00000000)  returns 0x00 (0000ms, 1100ms total)
T1F68 002:612 JLINK_WriteReg(R9, 0x20000160)  returns 0x00 (0000ms, 1100ms total)
T1F68 002:612 JLINK_WriteReg(R10, 0x00000000)  returns 0x00 (0000ms, 1100ms total)
T1F68 002:612 JLINK_WriteReg(R11, 0x00000000)  returns 0x00 (0000ms, 1100ms total)
T1F68 002:612 JLINK_WriteReg(R12, 0x00002000)  returns 0x00 (0000ms, 1100ms total)
T1F68 002:612 JLINK_WriteReg(R13, 0x20000478)  returns 0x00 (0000ms, 1100ms total)
T1F68 002:612 JLINK_WriteReg(R14, 0x080029DD)  returns 0x00 (0001ms, 1101ms total)
T1F68 002:613 JLINK_WriteReg(R15, 0x08000230)  returns 0x00 (0000ms, 1101ms total)
T1F68 002:613 JLINK_WriteReg(XPSR, 0x61000000)  returns 0x00 (0000ms, 1101ms total)
T1F68 002:613 JLINK_WriteReg(MSP, 0x20000478)  returns 0x00 (0000ms, 1101ms total)
T1F68 002:613 JLINK_WriteReg(PSP, 0x20000800)  returns 0x00 (0000ms, 1101ms total)
T1F68 002:613 JLINK_WriteReg(BASEPRI, 0x00000000)  returns 0x00 (0000ms, 1101ms total)
T1F68 002:613 JLINK_WriteReg(CONTROL, 0x00000000)  returns 0x00 (0000ms, 1101ms total)
T1F68 002:613 JLINK_WriteReg(FAULTMASK, 0x00000000)  returns 0x00 (0000ms, 1101ms total)
T1F68 002:613 JLINK_WriteReg(BASEPRI_MAX, 0x00000000)  returns 0x00 (0000ms, 1101ms total)
T1F68 002:613 JLINK_ReadReg(R0)  returns 0x00000005 (0000ms, 1101ms total)
T1F68 002:613 JLINK_ReadReg(R1)  returns 0x00000040 (0000ms, 1101ms total)
T1F68 002:613 JLINK_ReadReg(R2)  returns 0x40004400 (0000ms, 1101ms total)
T1F68 002:613 JLINK_ReadReg(R3)  returns 0x000000C0 (0000ms, 1101ms total)
T1F68 002:613 JLINK_ReadReg(R4)  returns 0x00000846 (0001ms, 1102ms total)
T1F68 002:614 JLINK_ReadReg(R5)  returns 0xC0170A3D (0000ms, 1102ms total)
T1F68 002:614 JLINK_ReadReg(R6)  returns 0x00000000 (0000ms, 1102ms total)
T1F68 002:614 JLINK_ReadReg(R7)  returns 0x00000000 (0000ms, 1102ms total)
T1F68 002:614 JLINK_ReadReg(R8)  returns 0x00000000 (0000ms, 1102ms total)
T1F68 002:614 JLINK_ReadReg(R9)  returns 0x20000160 (0000ms, 1102ms total)
T1F68 002:614 JLINK_ReadReg(R10)  returns 0x00000000 (0000ms, 1102ms total)
T1F68 002:614 JLINK_ReadReg(R11)  returns 0x00000000 (0000ms, 1102ms total)
T1F68 002:614 JLINK_ReadReg(R12)  returns 0x00002000 (0000ms, 1102ms total)
T1F68 002:614 JLINK_ReadReg(R13)  returns 0x20000478 (0000ms, 1102ms total)
T1F68 002:614 JLINK_ReadReg(R14)  returns 0x080029DD (0000ms, 1102ms total)
T1F68 002:614 JLINK_ReadReg(R15)  returns 0x08000230 (0000ms, 1102ms total)
T1F68 002:614 JLINK_ReadReg(XPSR)  returns 0x61000000 (0000ms, 1102ms total)
T1F68 002:614 JLINK_ReadReg(MSP)  returns 0x20000478 (0001ms, 1103ms total)
T1F68 002:615 JLINK_ReadReg(PSP)  returns 0x20000800 (0000ms, 1103ms total)
T1F68 002:615 JLINK_ReadReg(BASEPRI)  returns 0x00000000 (0000ms, 1103ms total)
T1F68 002:615 JLINK_ReadReg(CONTROL)  returns 0x00000000 (0000ms, 1103ms total)
T1F68 002:615 JLINK_ReadReg(FAULTMASK)  returns 0x00000000 (0000ms, 1103ms total)
T1F68 002:615 JLINK_ReadReg(BASEPRI_MAX)  returns 0x00000000 (0000ms, 1103ms total)
T1F68 002:615 JLINK_ReadMem (0x20000000, 0x0004 Bytes, ...) -- CPU_ReadMem(64 bytes @ 0x20000000) -- Updating C cache (64 bytes @ 0x20000000) -- Read from C cache (4 bytes @ 0x20000000) -- Data:  00 00 00 00  returns 0x00 (0002ms, 1105ms total)
T1F68 002:716 JLINK_ReadMem (0x08000230, 0x003C Bytes, ...) -- CPU_ReadMem(128 bytes @ 0x08000200) -- Updating C cache (128 bytes @ 0x08000200) -- Read from C cache (60 bytes @ 0x08000230) -- Data:  02 F0 CA FC 04 46 21 46 22 48 02 F0 9C FD 05 46 ...  returns 0x00 (0003ms, 1108ms total)
T1980 011:714 JLINK_Step() -- Read from C cache (2 bytes @ 0x08000230) -- Read from C cache (2 bytes @ 0x08000232) -- Simulated  returns 0x00 (0002ms, 1110ms total)
T1980 011:716 JLINK_ReadReg(R15)  returns 0x08002BC8 (0000ms, 1110ms total)
T1980 011:716 JLINK_ReadReg(XPSR)  returns 0x61000000 (0000ms, 1110ms total)
T1980 011:716 JLINK_SetBPEx(Addr = 0x08000230, Type = 0xFFFFFFF2)  returns 0x00000004 (0000ms, 1110ms total)
T1980 011:716 JLINK_SetBPEx(Addr = 0x0800017A, Type = 0xFFFFFFF2)  returns 0x00000005 (0000ms, 1110ms total)
T1980 011:716 JLINK_Go() -- CPU_WriteMem(4 bytes @ 0xE000200C) -- CPU_WriteMem(4 bytes @ 0xE0002008) -- CPU_WriteMem(4 bytes @ 0xE0002010) -- CPU_WriteMem(4 bytes @ 0xE000200C) -- CPU_WriteMem(4 bytes @ 0xE0002008) -- CPU_WriteMem(4 bytes @ 0xE000200C) -- CPU_WriteMem(4 bytes @ 0xE0002010) -- CPU_WriteMem(4 bytes @ 0xE0002014) -- CPU_WriteMem(4 bytes @ 0xE0002018) -- CPU_WriteMem(4 bytes @ 0xE000201C) -- Invalidate MA0 status (0012ms, 1122ms total)
T1980 011:828 JLINK_IsHalted()  returns FALSE (0001ms, 1123ms total)
T1980 011:929 JLINK_IsHalted()  returns TRUE (0010ms, 1132ms total)
T1980 011:939 JLINK_Halt()  returns 0x00 (0000ms, 1122ms total)
T1980 011:939 JLINK_IsHalted()  returns TRUE (0000ms, 1122ms total)
T1980 011:939 JLINK_IsHalted()  returns TRUE (0000ms, 1122ms total)
T1980 011:939 JLINK_IsHalted()  returns TRUE (0000ms, 1122ms total)
T1980 011:939 JLINK_ReadReg(R15)  returns 0x08000230 (0000ms, 1122ms total)
T1980 011:939 JLINK_ReadReg(XPSR)  returns 0x61000000 (0000ms, 1122ms total)
T1980 011:940 JLINK_ClrBPEx(BPHandle = 0x00000004)  returns 0x00 (0000ms, 1123ms total)
T1980 011:940 JLINK_ClrBPEx(BPHandle = 0x00000005)  returns 0x00 (0000ms, 1123ms total)
T1980 011:940 JLINK_ReadMemU32(0xE000ED30, 0x0001 Items, ...) -- CPU_ReadMem(4 bytes @ 0xE000ED30) -- Data:  03 00 00 00  returns 0x01 (0001ms, 1124ms total)
T1980 011:941 JLINK_ReadMemU32(0xE0001028, 0x0001 Items, ...) -- CPU_ReadMem(4 bytes @ 0xE0001028) -- Data:  00 00 00 00  returns 0x01 (0001ms, 1125ms total)
T1980 011:942 JLINK_ReadMemU32(0xE0001038, 0x0001 Items, ...) -- CPU_ReadMem(4 bytes @ 0xE0001038) -- Data:  00 02 00 00  returns 0x01 (0002ms, 1127ms total)
T1980 011:944 JLINK_ReadMemU32(0xE0001048, 0x0001 Items, ...) -- CPU_ReadMem(4 bytes @ 0xE0001048) -- Data:  00 00 00 00  returns 0x01 (0001ms, 1128ms total)
T1980 011:945 JLINK_ReadMemU32(0xE0001058, 0x0001 Items, ...) -- CPU_ReadMem(4 bytes @ 0xE0001058) -- Data:  00 00 00 00  returns 0x01 (0001ms, 1129ms total)
T1F68 011:947 JLINK_ReadReg(R0)  returns 0x00000004 (0000ms, 1129ms total)
T1F68 011:947 JLINK_ReadReg(R1)  returns 0x00000040 (0000ms, 1129ms total)
T1F68 011:947 JLINK_ReadReg(R2)  returns 0x40004400 (0000ms, 1129ms total)
T1F68 011:947 JLINK_ReadReg(R3)  returns 0x000000C0 (0000ms, 1129ms total)
T1F68 011:947 JLINK_ReadReg(R4)  returns 0x000001F9 (0001ms, 1130ms total)
T1F68 011:948 JLINK_ReadReg(R5)  returns 0x42010A3D (0000ms, 1130ms total)
T1F68 011:948 JLINK_ReadReg(R6)  returns 0x00000000 (0000ms, 1130ms total)
T1F68 011:948 JLINK_ReadReg(R7)  returns 0x00000000 (0000ms, 1130ms total)
T1F68 011:948 JLINK_ReadReg(R8)  returns 0x00000000 (0000ms, 1130ms total)
T1F68 011:948 JLINK_ReadReg(R9)  returns 0x20000160 (0000ms, 1130ms total)
T1F68 011:948 JLINK_ReadReg(R10)  returns 0x00000000 (0000ms, 1130ms total)
T1F68 011:948 JLINK_ReadReg(R11)  returns 0x00000000 (0000ms, 1130ms total)
T1F68 011:948 JLINK_ReadReg(R12)  returns 0x00002000 (0000ms, 1130ms total)
T1F68 011:948 JLINK_ReadReg(R13)  returns 0x20000478 (0000ms, 1130ms total)
T1F68 011:948 JLINK_ReadReg(R14)  returns 0x080029DD (0000ms, 1130ms total)
T1F68 011:948 JLINK_ReadReg(R15)  returns 0x08000230 (0001ms, 1131ms total)
T1F68 011:949 JLINK_ReadReg(XPSR)  returns 0x61000000 (0000ms, 1131ms total)
T1F68 011:949 JLINK_ReadReg(MSP)  returns 0x20000478 (0000ms, 1131ms total)
T1F68 011:949 JLINK_ReadReg(PSP)  returns 0x20000800 (0000ms, 1131ms total)
T1F68 011:949 JLINK_ReadReg(BASEPRI)  returns 0x00000000 (0000ms, 1131ms total)
T1F68 011:949 JLINK_ReadReg(CONTROL)  returns 0x00000000 (0000ms, 1131ms total)
T1F68 011:949 JLINK_ReadReg(FAULTMASK)  returns 0x00000000 (0000ms, 1131ms total)
T1F68 011:949 JLINK_ReadReg(BASEPRI_MAX)  returns 0x00000000 (0000ms, 1131ms total)
T1F68 011:949 JLINK_WriteReg(R0, 0x00000004)  returns 0x00 (0000ms, 1131ms total)
T1F68 011:949 JLINK_WriteReg(R1, 0x00000040)  returns 0x00 (0001ms, 1132ms total)
T1F68 011:950 JLINK_WriteReg(R2, 0x40004400)  returns 0x00 (0000ms, 1132ms total)
T1F68 011:950 JLINK_WriteReg(R3, 0x000000C0)  returns 0x00 (0000ms, 1132ms total)
T1F68 011:950 JLINK_WriteReg(R4, 0x000001F9)  returns 0x00 (0000ms, 1132ms total)
T1F68 011:950 JLINK_WriteReg(R5, 0x42010A3D)  returns 0x00 (0000ms, 1132ms total)
T1F68 011:950 JLINK_WriteReg(R6, 0x00000000)  returns 0x00 (0000ms, 1132ms total)
T1F68 011:950 JLINK_WriteReg(R7, 0x00000000)  returns 0x00 (0001ms, 1133ms total)
T1F68 011:951 JLINK_WriteReg(R8, 0x00000000)  returns 0x00 (0000ms, 1133ms total)
T1F68 011:951 JLINK_WriteReg(R9, 0x20000160)  returns 0x00 (0000ms, 1133ms total)
T1F68 011:951 JLINK_WriteReg(R10, 0x00000000)  returns 0x00 (0000ms, 1133ms total)
T1F68 011:951 JLINK_WriteReg(R11, 0x00000000)  returns 0x00 (0000ms, 1133ms total)
T1F68 011:951 JLINK_WriteReg(R12, 0x00002000)  returns 0x00 (0000ms, 1133ms total)
T1F68 011:951 JLINK_WriteReg(R13, 0x20000478)  returns 0x00 (0000ms, 1133ms total)
T1F68 011:951 JLINK_WriteReg(R14, 0x080029DD)  returns 0x00 (0001ms, 1134ms total)
T1F68 011:952 JLINK_WriteReg(R15, 0x08000230)  returns 0x00 (0000ms, 1134ms total)
T1F68 011:952 JLINK_WriteReg(XPSR, 0x61000000)  returns 0x00 (0000ms, 1134ms total)
T1F68 011:952 JLINK_WriteReg(MSP, 0x20000478)  returns 0x00 (0000ms, 1134ms total)
T1F68 011:952 JLINK_WriteReg(PSP, 0x20000800)  returns 0x00 (0000ms, 1134ms total)
T1F68 011:952 JLINK_WriteReg(BASEPRI, 0x00000000)  returns 0x00 (0000ms, 1134ms total)
T1F68 011:952 JLINK_WriteReg(CONTROL, 0x00000000)  returns 0x00 (0000ms, 1134ms total)
T1F68 011:952 JLINK_WriteReg(FAULTMASK, 0x00000000)  returns 0x00 (0000ms, 1134ms total)
T1F68 011:952 JLINK_WriteReg(BASEPRI_MAX, 0x00000000)  returns 0x00 (0000ms, 1134ms total)
T1F68 011:952 JLINK_ReadMem (0x00000000, 0x0004 Bytes, ...)
                JLINK_ReadMemHW(0x00000000, 0x0004 Bytes, ...) -- CPU_ReadMem(4 bytes @ 0x00000000) -- Data:  78 04 00 20  returns 0x00 (0002ms, 0002ms total)
                JLINK_ReadMemHW(0x08000000, 0x0004 Bytes, ...) -- CPU_ReadMem(4 bytes @ 0x08000000) -- Data:  78 04 00 20  returns 0x00 (0001ms, 0003ms total)
                JLINK_WriteMemHW(0x00000000, 0x0004 Bytes, ...) -- Data:  09 00 01 00 -- CPU_WriteMem(4 bytes @ 0x00000000)  returns 0x04 (0001ms, 0004ms total)
                JLINK_ReadMemHW(0x00000000, 0x0004 Bytes, ...) -- CPU_ReadMem(4 bytes @ 0x00000000) -- Data:  78 04 00 20  returns 0x00 (0001ms, 0005ms total)
               -- MA0 is in flash -- Unmirror addr 0x00000000 -- CPU_ReadMem(64 bytes @ 0x08000000) -- Updating C cache (64 bytes @ 0x08000000) -- Read from C cache (4 bytes @ 0x08000000) -- Data:  78 04 00 20  returns 0x00 (0008ms, 1142ms total)
T1F68 011:960 JLINK_ReadReg(R0)  returns 0x00000004 (0000ms, 1142ms total)
T1F68 011:960 JLINK_ReadReg(R1)  returns 0x00000040 (0000ms, 1142ms total)
T1F68 011:960 JLINK_ReadReg(R2)  returns 0x40004400 (0000ms, 1142ms total)
T1F68 011:960 JLINK_ReadReg(R3)  returns 0x000000C0 (0000ms, 1142ms total)
T1F68 011:960 JLINK_ReadReg(R4)  returns 0x000001F9 (0000ms, 1142ms total)
T1F68 011:960 JLINK_ReadReg(R5)  returns 0x42010A3D (0000ms, 1142ms total)
T1F68 011:960 JLINK_ReadReg(R6)  returns 0x00000000 (0001ms, 1143ms total)
T1F68 011:961 JLINK_ReadReg(R7)  returns 0x00000000 (0000ms, 1143ms total)
T1F68 011:961 JLINK_ReadReg(R8)  returns 0x00000000 (0000ms, 1143ms total)
T1F68 011:961 JLINK_ReadReg(R9)  returns 0x20000160 (0000ms, 1143ms total)
T1F68 011:961 JLINK_ReadReg(R10)  returns 0x00000000 (0000ms, 1143ms total)
T1F68 011:961 JLINK_ReadReg(R11)  returns 0x00000000 (0000ms, 1143ms total)
T1F68 011:961 JLINK_ReadReg(R12)  returns 0x00002000 (0000ms, 1143ms total)
T1F68 011:961 JLINK_ReadReg(R13)  returns 0x20000478 (0000ms, 1143ms total)
T1F68 011:961 JLINK_ReadReg(R14)  returns 0x080029DD (0000ms, 1143ms total)
T1F68 011:961 JLINK_ReadReg(R15)  returns 0x08000230 (0001ms, 1144ms total)
T1F68 011:962 JLINK_ReadReg(XPSR)  returns 0x61000000 (0000ms, 1144ms total)
T1F68 011:962 JLINK_ReadReg(MSP)  returns 0x20000478 (0000ms, 1144ms total)
T1F68 011:962 JLINK_ReadReg(PSP)  returns 0x20000800 (0000ms, 1144ms total)
T1F68 011:962 JLINK_ReadReg(BASEPRI)  returns 0x00000000 (0000ms, 1144ms total)
T1F68 011:962 JLINK_ReadReg(CONTROL)  returns 0x00000000 (0000ms, 1144ms total)
T1F68 011:962 JLINK_ReadReg(FAULTMASK)  returns 0x00000000 (0000ms, 1144ms total)
T1F68 011:962 JLINK_ReadReg(BASEPRI_MAX)  returns 0x00000000 (0000ms, 1144ms total)
T1F68 011:962 JLINK_ReadMem (0x20000000, 0x0004 Bytes, ...) -- CPU_ReadMem(64 bytes @ 0x20000000) -- Updating C cache (64 bytes @ 0x20000000) -- Read from C cache (4 bytes @ 0x20000000) -- Data:  3D 0A 01 42  returns 0x00 (0002ms, 1146ms total)
T1980 016:056 JLINK_Step() -- CPU_ReadMem(64 bytes @ 0x08000200) -- Updating C cache (64 bytes @ 0x08000200) -- Read from C cache (2 bytes @ 0x08000230) -- Read from C cache (2 bytes @ 0x08000232) -- Simulated  returns 0x00 (0003ms, 1149ms total)
T1980 016:059 JLINK_ReadReg(R15)  returns 0x08002BC8 (0000ms, 1149ms total)
T1980 016:059 JLINK_ReadReg(XPSR)  returns 0x61000000 (0000ms, 1149ms total)
T1980 016:059 JLINK_SetBPEx(Addr = 0x08000230, Type = 0xFFFFFFF2)  returns 0x00000006 (0000ms, 1149ms total)
T1980 016:059 JLINK_SetBPEx(Addr = 0x0800017A, Type = 0xFFFFFFF2)  returns 0x00000007 (0000ms, 1149ms total)
T1980 016:059 JLINK_Go() -- CPU_WriteMem(4 bytes @ 0xE0002008) -- CPU_WriteMem(4 bytes @ 0xE000200C) -- CPU_WriteMem(4 bytes @ 0xE0002010) -- CPU_WriteMem(4 bytes @ 0xE0002014) -- CPU_WriteMem(4 bytes @ 0xE0002018) -- CPU_WriteMem(4 bytes @ 0xE000201C) -- Invalidate MA0 status (0007ms, 1156ms total)
T1980 016:166 JLINK_IsHalted()  returns FALSE (0001ms, 1157ms total)
T1980 016:267 JLINK_IsHalted()  returns TRUE (0005ms, 1161ms total)
T1980 016:272 JLINK_Halt()  returns 0x00 (0000ms, 1156ms total)
T1980 016:272 JLINK_IsHalted()  returns TRUE (0000ms, 1156ms total)
T1980 016:272 JLINK_IsHalted()  returns TRUE (0000ms, 1156ms total)
T1980 016:272 JLINK_IsHalted()  returns TRUE (0000ms, 1156ms total)
T1980 016:272 JLINK_ReadReg(R15)  returns 0x08000230 (0000ms, 1156ms total)
T1980 016:272 JLINK_ReadReg(XPSR)  returns 0x61000000 (0000ms, 1156ms total)
T1980 016:272 JLINK_ClrBPEx(BPHandle = 0x00000006)  returns 0x00 (0000ms, 1156ms total)
T1980 016:272 JLINK_ClrBPEx(BPHandle = 0x00000007)  returns 0x00 (0000ms, 1156ms total)
T1980 016:272 JLINK_ReadMemU32(0xE000ED30, 0x0001 Items, ...) -- CPU_ReadMem(4 bytes @ 0xE000ED30) -- Data:  03 00 00 00  returns 0x01 (0001ms, 1157ms total)
T1980 016:273 JLINK_ReadMemU32(0xE0001028, 0x0001 Items, ...) -- CPU_ReadMem(4 bytes @ 0xE0001028) -- Data:  00 00 00 00  returns 0x01 (0001ms, 1158ms total)
T1980 016:274 JLINK_ReadMemU32(0xE0001038, 0x0001 Items, ...) -- CPU_ReadMem(4 bytes @ 0xE0001038) -- Data:  00 02 00 00  returns 0x01 (0001ms, 1159ms total)
T1980 016:275 JLINK_ReadMemU32(0xE0001048, 0x0001 Items, ...) -- CPU_ReadMem(4 bytes @ 0xE0001048) -- Data:  00 00 00 00  returns 0x01 (0001ms, 1160ms total)
T1980 016:276 JLINK_ReadMemU32(0xE0001058, 0x0001 Items, ...) -- CPU_ReadMem(4 bytes @ 0xE0001058) -- Data:  00 00 00 00  returns 0x01 (0001ms, 1161ms total)
T1F68 016:278 JLINK_ReadReg(R0)  returns 0x00000005 (0000ms, 1161ms total)
T1F68 016:278 JLINK_ReadReg(R1)  returns 0x00000040 (0000ms, 1161ms total)
T1F68 016:278 JLINK_ReadReg(R2)  returns 0x40004400 (0000ms, 1161ms total)
T1F68 016:278 JLINK_ReadReg(R3)  returns 0x000000C0 (0000ms, 1161ms total)
T1F68 016:278 JLINK_ReadReg(R4)  returns 0x00000601 (0000ms, 1161ms total)
T1F68 016:278 JLINK_ReadReg(R5)  returns 0xC1A51EB8 (0000ms, 1161ms total)
T1F68 016:278 JLINK_ReadReg(R6)  returns 0x00000000 (0000ms, 1161ms total)
T1F68 016:278 JLINK_ReadReg(R7)  returns 0x00000000 (0000ms, 1161ms total)
T1F68 016:278 JLINK_ReadReg(R8)  returns 0x00000000 (0000ms, 1161ms total)
T1F68 016:278 JLINK_ReadReg(R9)  returns 0x20000160 (0000ms, 1161ms total)
T1F68 016:278 JLINK_ReadReg(R10)  returns 0x00000000 (0000ms, 1161ms total)
T1F68 016:278 JLINK_ReadReg(R11)  returns 0x00000000 (0000ms, 1161ms total)
T1F68 016:278 JLINK_ReadReg(R12)  returns 0x0000000A (0000ms, 1161ms total)
T1F68 016:278 JLINK_ReadReg(R13)  returns 0x20000478 (0000ms, 1161ms total)
T1F68 016:278 JLINK_ReadReg(R14)  returns 0x080029DD (0000ms, 1161ms total)
T1F68 016:278 JLINK_ReadReg(R15)  returns 0x08000230 (0000ms, 1161ms total)
T1F68 016:278 JLINK_ReadReg(XPSR)  returns 0x61000000 (0000ms, 1161ms total)
T1F68 016:278 JLINK_ReadReg(MSP)  returns 0x20000478 (0000ms, 1161ms total)
T1F68 016:278 JLINK_ReadReg(PSP)  returns 0x20000800 (0000ms, 1161ms total)
T1F68 016:278 JLINK_ReadReg(BASEPRI)  returns 0x00000000 (0000ms, 1161ms total)
T1F68 016:278 JLINK_ReadReg(CONTROL)  returns 0x00000000 (0000ms, 1161ms total)
T1F68 016:278 JLINK_ReadReg(FAULTMASK)  returns 0x00000000 (0000ms, 1161ms total)
T1F68 016:278 JLINK_ReadReg(BASEPRI_MAX)  returns 0x00000000 (0000ms, 1161ms total)
T1F68 016:278 JLINK_WriteReg(R0, 0x00000005)  returns 0x00 (0000ms, 1161ms total)
T1F68 016:278 JLINK_WriteReg(R1, 0x00000040)  returns 0x00 (0000ms, 1161ms total)
T1F68 016:278 JLINK_WriteReg(R2, 0x40004400)  returns 0x00 (0000ms, 1161ms total)
T1F68 016:278 JLINK_WriteReg(R3, 0x000000C0)  returns 0x00 (0001ms, 1162ms total)
T1F68 016:279 JLINK_WriteReg(R4, 0x00000601)  returns 0x00 (0000ms, 1162ms total)
T1F68 016:279 JLINK_WriteReg(R5, 0xC1A51EB8)  returns 0x00 (0000ms, 1162ms total)
T1F68 016:279 JLINK_WriteReg(R6, 0x00000000)  returns 0x00 (0000ms, 1162ms total)
T1F68 016:279 JLINK_WriteReg(R7, 0x00000000)  returns 0x00 (0000ms, 1162ms total)
T1F68 016:279 JLINK_WriteReg(R8, 0x00000000)  returns 0x00 (0000ms, 1162ms total)
T1F68 016:279 JLINK_WriteReg(R9, 0x20000160)  returns 0x00 (0000ms, 1162ms total)
T1F68 016:279 JLINK_WriteReg(R10, 0x00000000)  returns 0x00 (0000ms, 1162ms total)
T1F68 016:279 JLINK_WriteReg(R11, 0x00000000)  returns 0x00 (0000ms, 1162ms total)
T1F68 016:279 JLINK_WriteReg(R12, 0x0000000A)  returns 0x00 (0000ms, 1162ms total)
T1F68 016:279 JLINK_WriteReg(R13, 0x20000478)  returns 0x00 (0000ms, 1162ms total)
T1F68 016:279 JLINK_WriteReg(R14, 0x080029DD)  returns 0x00 (0000ms, 1162ms total)
T1F68 016:279 JLINK_WriteReg(R15, 0x08000230)  returns 0x00 (0000ms, 1162ms total)
T1F68 016:279 JLINK_WriteReg(XPSR, 0x61000000)  returns 0x00 (0000ms, 1162ms total)
T1F68 016:279 JLINK_WriteReg(MSP, 0x20000478)  returns 0x00 (0000ms, 1162ms total)
T1F68 016:279 JLINK_WriteReg(PSP, 0x20000800)  returns 0x00 (0000ms, 1162ms total)
T1F68 016:279 JLINK_WriteReg(BASEPRI, 0x00000000)  returns 0x00 (0000ms, 1162ms total)
T1F68 016:279 JLINK_WriteReg(CONTROL, 0x00000000)  returns 0x00 (0000ms, 1162ms total)
T1F68 016:279 JLINK_WriteReg(FAULTMASK, 0x00000000)  returns 0x00 (0000ms, 1162ms total)
T1F68 016:279 JLINK_WriteReg(BASEPRI_MAX, 0x00000000)  returns 0x00 (0000ms, 1162ms total)
T1F68 016:279 JLINK_ReadMem (0x00000000, 0x0004 Bytes, ...)
                JLINK_ReadMemHW(0x00000000, 0x0004 Bytes, ...) -- CPU_ReadMem(4 bytes @ 0x00000000) -- Data:  78 04 00 20  returns 0x00 (0001ms, 0001ms total)
                JLINK_ReadMemHW(0x08000000, 0x0004 Bytes, ...) -- CPU_ReadMem(4 bytes @ 0x08000000) -- Data:  78 04 00 20  returns 0x00 (0002ms, 0003ms total)
                JLINK_WriteMemHW(0x00000000, 0x0004 Bytes, ...) -- Data:  09 00 01 00 -- CPU_WriteMem(4 bytes @ 0x00000000)  returns 0x04 (0001ms, 0004ms total)
                JLINK_ReadMemHW(0x00000000, 0x0004 Bytes, ...) -- CPU_ReadMem(4 bytes @ 0x00000000) -- Data:  78 04 00 20  returns 0x00 (0001ms, 0005ms total)
               -- MA0 is in flash -- Unmirror addr 0x00000000 -- CPU_ReadMem(64 bytes @ 0x08000000) -- Updating C cache (64 bytes @ 0x08000000) -- Read from C cache (4 bytes @ 0x08000000) -- Data:  78 04 00 20  returns 0x00 (0007ms, 1169ms total)
T1F68 016:286 JLINK_ReadReg(R0)  returns 0x00000005 (0000ms, 1169ms total)
T1F68 016:286 JLINK_ReadReg(R1)  returns 0x00000040 (0000ms, 1169ms total)
T1F68 016:286 JLINK_ReadReg(R2)  returns 0x40004400 (0000ms, 1169ms total)
T1F68 016:286 JLINK_ReadReg(R3)  returns 0x000000C0 (0000ms, 1169ms total)
T1F68 016:286 JLINK_ReadReg(R4)  returns 0x00000601 (0000ms, 1169ms total)
T1F68 016:286 JLINK_ReadReg(R5)  returns 0xC1A51EB8 (0000ms, 1169ms total)
T1F68 016:286 JLINK_ReadReg(R6)  returns 0x00000000 (0000ms, 1169ms total)
T1F68 016:286 JLINK_ReadReg(R7)  returns 0x00000000 (0000ms, 1169ms total)
T1F68 016:286 JLINK_ReadReg(R8)  returns 0x00000000 (0000ms, 1169ms total)
T1F68 016:286 JLINK_ReadReg(R9)  returns 0x20000160 (0000ms, 1169ms total)
T1F68 016:286 JLINK_ReadReg(R10)  returns 0x00000000 (0000ms, 1169ms total)
T1F68 016:286 JLINK_ReadReg(R11)  returns 0x00000000 (0000ms, 1169ms total)
T1F68 016:286 JLINK_ReadReg(R12)  returns 0x0000000A (0000ms, 1169ms total)
T1F68 016:286 JLINK_ReadReg(R13)  returns 0x20000478 (0000ms, 1169ms total)
T1F68 016:286 JLINK_ReadReg(R14)  returns 0x080029DD (0000ms, 1169ms total)
T1F68 016:286 JLINK_ReadReg(R15)  returns 0x08000230 (0000ms, 1169ms total)
T1F68 016:286 JLINK_ReadReg(XPSR)  returns 0x61000000 (0000ms, 1169ms total)
T1F68 016:286 JLINK_ReadReg(MSP)  returns 0x20000478 (0000ms, 1169ms total)
T1F68 016:286 JLINK_ReadReg(PSP)  returns 0x20000800 (0000ms, 1169ms total)
T1F68 016:286 JLINK_ReadReg(BASEPRI)  returns 0x00000000 (0000ms, 1169ms total)
T1F68 016:286 JLINK_ReadReg(CONTROL)  returns 0x00000000 (0000ms, 1169ms total)
T1F68 016:286 JLINK_ReadReg(FAULTMASK)  returns 0x00000000 (0000ms, 1169ms total)
T1F68 016:286 JLINK_ReadReg(BASEPRI_MAX)  returns 0x00000000 (0000ms, 1169ms total)
T1F68 016:286 JLINK_ReadMem (0x20000000, 0x0004 Bytes, ...) -- CPU_ReadMem(64 bytes @ 0x20000000) -- Updating C cache (64 bytes @ 0x20000000) -- Read from C cache (4 bytes @ 0x20000000) -- Data:  84 EB 39 41  returns 0x00 (0002ms, 1171ms total)
T1980 020:388 JLINK_Step() -- CPU_ReadMem(64 bytes @ 0x08000200) -- Updating C cache (64 bytes @ 0x08000200) -- Read from C cache (2 bytes @ 0x08000230) -- Read from C cache (2 bytes @ 0x08000232) -- Simulated  returns 0x00 (0003ms, 1174ms total)
T1980 020:391 JLINK_ReadReg(R15)  returns 0x08002BC8 (0000ms, 1174ms total)
T1980 020:391 JLINK_ReadReg(XPSR)  returns 0x61000000 (0000ms, 1174ms total)
T1980 020:391 JLINK_SetBPEx(Addr = 0x08000230, Type = 0xFFFFFFF2)  returns 0x00000008 (0000ms, 1174ms total)
T1980 020:391 JLINK_SetBPEx(Addr = 0x0800017A, Type = 0xFFFFFFF2)  returns 0x00000009 (0000ms, 1174ms total)
T1980 020:391 JLINK_Go() -- CPU_WriteMem(4 bytes @ 0xE0002008) -- CPU_WriteMem(4 bytes @ 0xE000200C) -- CPU_WriteMem(4 bytes @ 0xE0002010) -- CPU_WriteMem(4 bytes @ 0xE0002014) -- CPU_WriteMem(4 bytes @ 0xE0002018) -- CPU_WriteMem(4 bytes @ 0xE000201C) -- Invalidate MA0 status (0008ms, 1182ms total)
T1980 020:500 JLINK_IsHalted()  returns TRUE (0006ms, 1188ms total)
T1980 020:506 JLINK_Halt()  returns 0x00 (0000ms, 1182ms total)
T1980 020:506 JLINK_IsHalted()  returns TRUE (0001ms, 1183ms total)
T1980 020:507 JLINK_IsHalted()  returns TRUE (0000ms, 1182ms total)
T1980 020:507 JLINK_IsHalted()  returns TRUE (0000ms, 1182ms total)
T1980 020:507 JLINK_ReadReg(R15)  returns 0x08000230 (0000ms, 1182ms total)
T1980 020:507 JLINK_ReadReg(XPSR)  returns 0x61000000 (0000ms, 1182ms total)
T1980 020:507 JLINK_ClrBPEx(BPHandle = 0x00000008)  returns 0x00 (0000ms, 1182ms total)
T1980 020:507 JLINK_ClrBPEx(BPHandle = 0x00000009)  returns 0x00 (0000ms, 1182ms total)
T1980 020:507 JLINK_ReadMemU32(0xE000ED30, 0x0001 Items, ...) -- CPU_ReadMem(4 bytes @ 0xE000ED30) -- Data:  03 00 00 00  returns 0x01 (0002ms, 1184ms total)
T1980 020:509 JLINK_ReadMemU32(0xE0001028, 0x0001 Items, ...) -- CPU_ReadMem(4 bytes @ 0xE0001028) -- Data:  00 00 00 00  returns 0x01 (0001ms, 1185ms total)
T1980 020:510 JLINK_ReadMemU32(0xE0001038, 0x0001 Items, ...) -- CPU_ReadMem(4 bytes @ 0xE0001038) -- Data:  00 02 00 00  returns 0x01 (0001ms, 1186ms total)
T1980 020:511 JLINK_ReadMemU32(0xE0001048, 0x0001 Items, ...) -- CPU_ReadMem(4 bytes @ 0xE0001048) -- Data:  00 00 00 00  returns 0x01 (0002ms, 1188ms total)
T1980 020:513 JLINK_ReadMemU32(0xE0001058, 0x0001 Items, ...) -- CPU_ReadMem(4 bytes @ 0xE0001058) -- Data:  00 00 00 00  returns 0x01 (0002ms, 1190ms total)
T1F68 020:515 JLINK_ReadReg(R0)  returns 0x00000004 (0000ms, 1190ms total)
T1F68 020:515 JLINK_ReadReg(R1)  returns 0x00000040 (0001ms, 1191ms total)
T1F68 020:516 JLINK_ReadReg(R2)  returns 0x40004400 (0000ms, 1191ms total)
T1F68 020:516 JLINK_ReadReg(R3)  returns 0x000000C0 (0000ms, 1191ms total)
T1F68 020:516 JLINK_ReadReg(R4)  returns 0x00000370 (0000ms, 1191ms total)
T1F68 020:516 JLINK_ReadReg(R5)  returns 0x41523D70 (0000ms, 1191ms total)
T1F68 020:516 JLINK_ReadReg(R6)  returns 0x00000000 (0000ms, 1191ms total)
T1F68 020:516 JLINK_ReadReg(R7)  returns 0x00000000 (0000ms, 1191ms total)
T1F68 020:516 JLINK_ReadReg(R8)  returns 0x00000000 (0000ms, 1191ms total)
T1F68 020:516 JLINK_ReadReg(R9)  returns 0x20000160 (0001ms, 1192ms total)
T1F68 020:517 JLINK_ReadReg(R10)  returns 0x00000000 (0000ms, 1192ms total)
T1F68 020:517 JLINK_ReadReg(R11)  returns 0x00000000 (0000ms, 1192ms total)
T1F68 020:517 JLINK_ReadReg(R12)  returns 0x0000000A (0000ms, 1192ms total)
T1F68 020:517 JLINK_ReadReg(R13)  returns 0x20000478 (0000ms, 1192ms total)
T1F68 020:517 JLINK_ReadReg(R14)  returns 0x080029DD (0000ms, 1192ms total)
T1F68 020:517 JLINK_ReadReg(R15)  returns 0x08000230 (0000ms, 1192ms total)
T1F68 020:517 JLINK_ReadReg(XPSR)  returns 0x61000000 (0000ms, 1192ms total)
T1F68 020:517 JLINK_ReadReg(MSP)  returns 0x20000478 (0000ms, 1192ms total)
T1F68 020:517 JLINK_ReadReg(PSP)  returns 0x20000800 (0001ms, 1193ms total)
T1F68 020:518 JLINK_ReadReg(BASEPRI)  returns 0x00000000 (0000ms, 1193ms total)
T1F68 020:518 JLINK_ReadReg(CONTROL)  returns 0x00000000 (0000ms, 1193ms total)
T1F68 020:518 JLINK_ReadReg(FAULTMASK)  returns 0x00000000 (0000ms, 1193ms total)
T1F68 020:518 JLINK_ReadReg(BASEPRI_MAX)  returns 0x00000000 (0000ms, 1193ms total)
